Time [s],Value,Parity Error,Framing Error
1.175499791666667,0xFF,,
6.177028125000000,0x7E,,
6.178068458333334,0x00,,
6.179108750000000,0x7D,,
6.180149083333333,0x31,,
6.181189375000000,0x17,,
6.182229708333334,0x01,,
6.183270000000000,0x00,,
6.184310333333333,0x00,,
6.185350625000000,0x00,,
6.186390958333333,0x00,,
6.187431250000000,0x00,,
6.188471583333333,0x00,,
6.189511875000000,0xFF,,
6.190552208333333,0xFF,,
6.191592500000000,0xFF,,
6.192632833333334,0xFE,,
6.193673125000000,0x02,,
6.194713458333333,0x49,,
6.195753750000000,0x52,,
6.196794083333334,0xFF,,
6.197834375000000,0xFF,,
6.198874708333333,0x51,,
7.177627416666667,0x7E,,
7.178667708333333,0x00,,
7.179708041666666,0x10,,
7.180748333333334,0x17,,
7.181788666666667,0x01,,
7.182828958333333,0x00,,
7.183869291666666,0x00,,
7.184909583333333,0x00,,
7.185949916666667,0x00,,
7.186990208333333,0x00,,
7.188030541666667,0x00,,
7.189070833333333,0xFF,,
7.190111166666667,0xFF,,
7.191151458333334,0xFF,,
7.192191791666667,0xFE,,
7.193232083333333,0x02,,
7.194272416666666,0x44,,
7.195312708333334,0x30,,
7.196353041666667,0x04,,
7.197393333333333,0x72,,
8.178200708333334,0x7E,,
8.179240999999999,0x00,,
8.180281333333333,0x10,,
8.181321625000001,0x17,,
8.182361958333333,0x01,,
8.183402250000000,0x00,,
8.184442583333333,0x00,,
8.185482875000000,0x00,,
8.186523208333334,0x00,,
8.187563500000000,0x00,,
8.188603833333334,0x00,,
8.189644124999999,0xFF,,
8.190684458333333,0xFF,,
8.191724750000001,0xFF,,
8.192765083333333,0xFE,,
8.193805375000000,0x02,,
8.194845708333334,0x44,,
8.195886000000000,0x30,,
8.196926333333334,0x05,,
8.197966624999999,0x71,,
9.178760958333333,0x7E,,
9.179801250000001,0x00,,
9.180841583333333,0x10,,
9.181881875000000,0x17,,
9.182922208333334,0x01,,
9.183962500000000,0x00,,
9.185002833333334,0x00,,
9.186043124999999,0x00,,
9.187083458333333,0x00,,
9.188123750000001,0x00,,
9.189164083333333,0x00,,
9.190204375000000,0xFF,,
9.191244708333333,0xFF,,
9.192285000000000,0xFF,,
9.193325333333334,0xFE,,
9.194365625000000,0x02,,
9.195405958333334,0x44,,
9.196446249999999,0x30,,
9.197486583333333,0x04,,
9.198526875000001,0x72,,
10.179334250000000,0x7E,,
10.180374583333334,0x00,,
10.181414875000000,0x10,,
10.182455208333334,0x17,,
10.183495499999999,0x01,,
10.184535833333333,0x00,,
10.185576125000001,0x00,,
10.186616458333333,0x00,,
10.187656750000000,0x00,,
10.188697083333333,0x00,,
10.189737375000000,0x00,,
10.190777708333334,0xFF,,
10.191818000000000,0xFF,,
10.192858333333334,0xFF,,
10.193898624999999,0xFE,,
10.194938958333333,0x02,,
10.195979250000001,0x44,,
10.197019583333333,0x30,,
10.198059875000000,0x05,,
10.199100208333334,0x71,,
11.179907541666667,0x7E,,
11.180947874999999,0x00,,
11.181988166666667,0x10,,
11.183028500000001,0x17,,
11.184068791666666,0x01,,
11.185109125000000,0x00,,
11.186149416666666,0x00,,
11.187189750000000,0x00,,
11.188230041666667,0x00,,
11.189270375000000,0x00,,
11.190310666666667,0x00,,
11.191350999999999,0xFF,,
11.192391291666667,0xFF,,
11.193431625000001,0xFF,,
11.194471916666666,0xFE,,
11.195512250000000,0x02,,
11.196552541666666,0x44,,
11.197592875000000,0x30,,
11.198633166666667,0x04,,
11.199673499999999,0x72,,
12.180480791666668,0x7E,,
12.181521083333333,0x00,,
12.182561416666667,0x10,,
12.183601708333333,0x17,,
12.184642041666667,0x01,,
12.185682333333334,0x00,,
12.186722666666666,0x00,,
12.187762958333334,0x00,,
12.188803291666666,0x00,,
12.189843583333333,0x00,,
12.190883916666667,0x00,,
12.191924208333333,0xFF,,
12.192964541666667,0xFF,,
12.194004833333333,0xFF,,
12.195045166666667,0xFE,,
12.196085458333334,0x02,,
12.197125791666666,0x44,,
12.198166083333334,0x30,,
12.199206416666666,0x05,,
12.200246708333333,0x71,,
13.181066749999999,0x7E,,
13.182107083333333,0x00,,
13.183147375000001,0x10,,
13.184187708333333,0x17,,
13.185228000000000,0x01,,
13.186268333333333,0x00,,
13.187308625000000,0x00,,
13.188348958333334,0x00,,
13.189389250000000,0x00,,
13.190429583333334,0x00,,
13.191469874999999,0x00,,
13.192510208333333,0xFF,,
13.193550500000001,0xFF,,
13.194590833333333,0xFF,,
13.195631125000000,0xFE,,
13.196671458333334,0x02,,
13.197711750000000,0x44,,
13.198752083333334,0x30,,
13.199792374999999,0x04,,
13.200832708333333,0x72,,
14.181626750000000,0x7E,,
14.182667041666667,0x00,,
14.183707374999999,0x10,,
14.184747666666667,0x17,,
14.185788000000001,0x01,,
14.186828291666666,0x00,,
14.187868625000000,0x00,,
14.188908916666668,0x00,,
14.189949250000000,0x00,,
14.190989541666667,0x00,,
14.192029874999999,0x00,,
14.193070166666667,0xFF,,
14.194110500000001,0xFF,,
14.195150791666666,0xFF,,
14.196191125000000,0xFE,,
14.197231416666666,0x02,,
14.198271750000000,0x44,,
14.199312041666667,0x30,,
14.200352375000000,0x05,,
14.201392666666667,0x71,,
15.182199583333333,0x7E,,
15.183239875000000,0x00,,
15.184280208333334,0x10,,
15.185320500000000,0x17,,
15.186360791666667,0x01,,
15.187401124999999,0x00,,
15.188441416666667,0x00,,
15.189481750000001,0x00,,
15.190522041666666,0x00,,
15.191562375000000,0x00,,
15.192602666666666,0x00,,
15.193643000000000,0xFF,,
15.194683291666667,0xFF,,
15.195723624999999,0xFF,,
15.196763916666667,0xFE,,
15.197804250000001,0x02,,
15.198844541666666,0x44,,
15.199884875000000,0x30,,
15.200925166666666,0x04,,
15.201965500000000,0x72,,
16.182772208333333,0x7E,,
16.183812541666665,0x00,,
16.184852833333334,0x10,,
16.185893166666666,0x17,,
16.186933458333332,0x01,,
16.187973791666668,0x00,,
16.189014083333333,0x00,,
16.190054374999999,0x00,,
16.191094708333335,0x00,,
16.192135000000000,0x00,,
16.193175333333333,0x00,,
16.194215624999998,0xFF,,
16.195255958333334,0xFF,,
16.196296250000000,0xFF,,
16.197336583333332,0xFE,,
16.198376875000001,0x02,,
16.199417208333333,0x44,,
16.200457499999999,0x30,,
16.201497833333335,0x05,,
16.202538125000000,0x71,,
17.183344708333333,0x7E,,
17.184385041666665,0x00,,
17.185425333333335,0x10,,
17.186465666666667,0x17,,
17.187505958333333,0x01,,
17.188546250000002,0x00,,
17.189586583333334,0x00,,
17.190626875000000,0x00,,
17.191667208333332,0x00,,
17.192707500000001,0x00,,
17.193747833333333,0x00,,
17.194788124999999,0xFF,,
17.195828458333335,0xFF,,
17.196868750000000,0xFF,,
17.197909083333332,0xFE,,
17.198949375000002,0x02,,
17.199989708333334,0x44,,
17.201029999999999,0x30,,
17.202070333333332,0x04,,
17.203110625000001,0x72,,
18.183917375000000,0x7E,,
18.184957666666666,0x00,,
18.185998000000001,0x10,,
18.187038291666667,0x17,,
18.188078624999999,0x01,,
18.189118916666665,0x00,,
18.190159250000001,0x00,,
18.191199541666666,0x00,,
18.192239874999999,0x00,,
18.193280166666668,0x00,,
18.194320500000000,0x00,,
18.195360791666666,0xFF,,
18.196401125000001,0xFF,,
18.197441416666667,0xFF,,
18.198481749999999,0xFE,,
18.199522041666668,0x02,,
18.200562375000001,0x44,,
18.201602666666666,0x30,,
18.202642999999998,0x05,,
18.203683291666668,0x71,,
19.184489916666667,0x7E,,
19.185530249999999,0x00,,
19.186570541666665,0x10,,
19.187610875000001,0x17,,
19.188651166666666,0x01,,
19.189691499999999,0x00,,
19.190731791666668,0x00,,
19.191772125000000,0x00,,
19.192812416666666,0x00,,
19.193852708333335,0x00,,
19.194893041666667,0x00,,
19.195933333333333,0xFF,,
19.196973666666668,0xFF,,
19.198013958333334,0xFF,,
19.199054291666666,0xFE,,
19.200094583333332,0x02,,
19.201134916666668,0x44,,
19.202175208333333,0x30,,
19.203215541666665,0x04,,
19.204255833333335,0x72,,
